
**** 01/17/23 13:38:47 *********** Evaluation PSpice (Nov 1999) **************

 * D:\Desktop\wroklab1\Schematic3TEMA.sch


 ****     CIRCUIT DESCRIPTION


******************************************************************************




* Schematics Version 9.1 - Web Update 1
* Tue Jan 03 22:50:30 2023



** Analysis setup **
.tran 0ns 10ms
.OP 


* From [PSPICE NETLIST] section of pspiceev.ini:
.lib "nom.lib"

.INC "Schematic3TEMA.net"

**** INCLUDING Schematic3TEMA.net ****
* Schematics Netlist *



R_R1         $N_0002 $N_0001  1k  
J_J1         $N_0002 $N_0003 0 J2N3819 
V_VCC         $N_0001 0 25
V_VAC         $N_0003 $N_0004  
+SIN 0 10mV 1k 0 0 0
V_VGS         0 $N_0004 1

**** RESUMING Schematic3TEMA.cir ****
.INC "Schematic3TEMA.als"



**** INCLUDING Schematic3TEMA.als ****
* Schematics Aliases *

.ALIASES
R_R1            R1(1=$N_0002 2=$N_0001 )
J_J1            J1(d=$N_0002 g=$N_0003 s=0 )
V_VCC           VCC(+=$N_0001 -=0 )
V_VAC           VAC(+=$N_0003 -=$N_0004 )
V_VGS           VGS(+=0 -=$N_0004 )
.ENDALIASES


**** RESUMING Schematic3TEMA.cir ****
.probe


.END

**** 01/17/23 13:38:47 *********** Evaluation PSpice (Nov 1999) **************

 * D:\Desktop\wroklab1\Schematic3TEMA.sch


 ****     Junction FET MODEL PARAMETERS


******************************************************************************




               J2N3819         
               NJF             
         VTO   -3            
        BETA    1.304000E-03 
      LAMBDA    2.250000E-03 
          IS   33.570000E-15 
         ISR  322.400000E-15 
       ALPHA  311.700000E-06 
          VK  243.6          
          RD    1            
          RS    1            
         CGD    1.600000E-12 
         CGS    2.414000E-12 
           M     .3622       
       VTOTC   -2.500000E-03 
     BETATCE    -.5          
          KF    9.882000E-18 


**** 01/17/23 13:38:47 *********** Evaluation PSpice (Nov 1999) **************

 * D:\Desktop\wroklab1\Schematic3TEMA.sch


 ****     SMALL SIGNAL BIAS SOLUTION       TEMPERATURE =   27.000 DEG C


******************************************************************************



 NODE   VOLTAGE     NODE   VOLTAGE     NODE   VOLTAGE     NODE   VOLTAGE


($N_0001)   25.0000                   ($N_0002)   19.5840                       

($N_0003)   -1.0000                   ($N_0004)   -1.0000                   




    VOLTAGE SOURCE CURRENTS
    NAME         CURRENT

    V_VCC       -5.416E-03
    V_VAC        2.991E-11
    V_VGS       -2.991E-11

    TOTAL POWER DISSIPATION   1.35E-01  WATTS


**** 01/17/23 13:38:47 *********** Evaluation PSpice (Nov 1999) **************

 * D:\Desktop\wroklab1\Schematic3TEMA.sch


 ****     OPERATING POINT INFORMATION      TEMPERATURE =   27.000 DEG C


******************************************************************************






**** JFETS


NAME         J_J1      
MODEL        J2N3819   
ID           5.42E-03 
VGS         -1.00E+00 
VDS          1.96E+01 
GM           5.43E-03 
GDS          1.17E-05 
CGS          1.88E-12 
CGD          5.26E-13 
**** 01/17/23 13:38:47 *********** Evaluation PSpice (Nov 1999) **************

 * D:\Desktop\wroklab1\Schematic3TEMA.sch


 ****     INITIAL TRANSIENT SOLUTION       TEMPERATURE =   27.000 DEG C


******************************************************************************



 NODE   VOLTAGE     NODE   VOLTAGE     NODE   VOLTAGE     NODE   VOLTAGE


($N_0001)   25.0000                   ($N_0002)   19.5840                       

($N_0003)   -1.0000                   ($N_0004)   -1.0000                   




    VOLTAGE SOURCE CURRENTS
    NAME         CURRENT

    V_VCC       -5.416E-03
    V_VAC        2.991E-11
    V_VGS       -2.991E-11

    TOTAL POWER DISSIPATION   1.35E-01  WATTS



          JOB CONCLUDED

          TOTAL JOB TIME             .02
