
**** 01/18/23 12:05:13 *********** Evaluation PSpice (Nov 1999) **************

 * D:\Desktop\TEMA DE CASA DE\wroklab1\Schematic1TEMA.sch


 ****     CIRCUIT DESCRIPTION


******************************************************************************




* Schematics Version 9.1 - Web Update 1
* Tue Jan 17 14:03:14 2023



** Analysis setup **
.DC LIN V_VGS 0 5 0.1 
+ LIN V_VDS 5 25 8 
.OP 


* From [PSPICE NETLIST] section of pspiceev.ini:
.lib "nom.lib"

.INC "Schematic1TEMA.net"

**** INCLUDING Schematic1TEMA.net ****
* Schematics Netlist *



J_J3         $N_0002 $N_0001 0 J2N3819 
V_VGS         0 $N_0001 5
V_VDS         $N_0003 0 10
R_R2         $N_0002 $N_0003  100  

**** RESUMING Schematic1TEMA.cir ****
.INC "Schematic1TEMA.als"



**** INCLUDING Schematic1TEMA.als ****
* Schematics Aliases *

.ALIASES
J_J3            J3(d=$N_0002 g=$N_0001 s=0 )
V_VGS           VGS(+=0 -=$N_0001 )
V_VDS           VDS(+=$N_0003 -=0 )
R_R2            R2(1=$N_0002 2=$N_0003 )
.ENDALIASES


**** RESUMING Schematic1TEMA.cir ****
.probe


.END

**** 01/18/23 12:05:13 *********** Evaluation PSpice (Nov 1999) **************

 * D:\Desktop\TEMA DE CASA DE\wroklab1\Schematic1TEMA.sch


 ****     Junction FET MODEL PARAMETERS


******************************************************************************




               J2N3819         
               NJF             
         VTO   -3            
        BETA    1.304000E-03 
      LAMBDA    2.250000E-03 
          IS   33.570000E-15 
         ISR  322.400000E-15 
       ALPHA  311.700000E-06 
          VK  243.6          
          RD    1            
          RS    1            
         CGD    1.600000E-12 
         CGS    2.414000E-12 
           M     .3622       
       VTOTC   -2.500000E-03 
     BETATCE    -.5          
          KF    9.882000E-18 


**** 01/18/23 12:05:13 *********** Evaluation PSpice (Nov 1999) **************

 * D:\Desktop\TEMA DE CASA DE\wroklab1\Schematic1TEMA.sch


 ****     SMALL SIGNAL BIAS SOLUTION       TEMPERATURE =   27.000 DEG C


******************************************************************************



 NODE   VOLTAGE     NODE   VOLTAGE     NODE   VOLTAGE     NODE   VOLTAGE


($N_0001)   -5.0000                   ($N_0002)   10.0000                       

($N_0003)   10.0000                   




    VOLTAGE SOURCE CURRENTS
    NAME         CURRENT

    V_VGS       -1.564E-12
    V_VDS       -9.144E-13

    TOTAL POWER DISSIPATION   1.70E-11  WATTS


**** 01/18/23 12:05:13 *********** Evaluation PSpice (Nov 1999) **************

 * D:\Desktop\TEMA DE CASA DE\wroklab1\Schematic1TEMA.sch


 ****     OPERATING POINT INFORMATION      TEMPERATURE =   27.000 DEG C


******************************************************************************






**** JFETS


NAME         J_J3      
MODEL        J2N3819   
ID           9.14E-13 
VGS         -5.00E+00 
VDS          1.00E+01 
GM           0.00E+00 
GDS          0.00E+00 
CGS          1.26E-12 
CGD          5.86E-13 

          JOB CONCLUDED

          TOTAL JOB TIME             .05
